time	V(ph1)	I(L)
Step Information: Freq=60K  (Run: 1/3)
0.000000000000000e+000	0.000000e+000	3.640907e-001
9.999986949615902e-014	0.000000e+000	3.640401e-001
2.999996084884771e-013	1.666667e-001	3.639857e-001
6.999990864731132e-013	7.857157e-001	3.639773e-001
9.999952255146383e-013	1.000000e+000	3.639358e-001
1.079993733332785e-012	1.000000e+000	3.639141e-001
1.239994218416030e-012	1.000000e+000	3.639203e-001
1.559991719135567e-012	1.000000e+000	3.640196e-001
1.999997389923180e-012	1.000000e+000	3.640759e-001
1.666666631094937e-010	1.000000e+000	3.617014e-001
1.667666629789899e-010	1.000000e+000	3.616999e-001
1.669666627179822e-010	1.000000e+000	3.616975e-001
1.673666621959669e-010	1.000000e+000	3.616933e-001
1.676666618044553e-010	1.000000e+000	3.616899e-001
2.113907929257586e-008	1.000000e+000	1.013700e-001
4.211057192532453e-008	1.000000e+000	-1.572079e-001
8.405355718735241e-008	1.000000e+000	-6.686608e-001
1.679395277114082e-007	1.000000e+000	-1.665722e+000
3.346061943770851e-007	1.000000e+000	-3.561818e+000
5.012728610427619e-007	1.000000e+000	-5.334603e+000
6.679395277084388e-007	1.000000e+000	-6.948407e+000
8.346061943741157e-007	1.000000e+000	-8.384003e+000
1.001272861039793e-006	1.000000e+000	-9.625896e+000
1.167939527705469e-006	1.000000e+000	-1.066242e+001
1.334606194371146e-006	1.000000e+000	-1.148575e+001
1.501272861036823e-006	1.000000e+000	-1.209186e+001
1.667939527702500e-006	1.000000e+000	-1.248045e+001
1.834606194368177e-006	1.000000e+000	-1.265473e+001
2.001272861033854e-006	1.000000e+000	-1.262128e+001
2.167939527699531e-006	1.000000e+000	-1.238974e+001
2.334606194365207e-006	1.000000e+000	-1.197255e+001
2.501272861030884e-006	1.000000e+000	-1.138464e+001
2.667939527696561e-006	1.000000e+000	-1.064302e+001
2.834606194362238e-006	1.000000e+000	-9.766480e+000
3.001272861027915e-006	1.000000e+000	-8.775158e+000
3.167939527693592e-006	1.000000e+000	-7.690180e+000
3.334606194359269e-006	1.000000e+000	-6.533266e+000
3.501272861024946e-006	1.000000e+000	-5.326350e+000
3.834606194356299e-006	1.000000e+000	-2.849158e+000
4.001272861021976e-006	1.000000e+000	-1.620635e+000
4.167939527687653e-006	1.000000e+000	-4.250010e-001
4.334606194353330e-006	1.000000e+000	7.197772e-001
4.501272861019007e-006	1.000000e+000	1.797345e+000
4.667939527684684e-006	1.000000e+000	2.793157e+000
4.834606194350360e-006	1.000000e+000	3.694630e+000
5.001272861016037e-006	1.000000e+000	4.491268e+000
5.167939527681714e-006	1.000000e+000	5.174733e+000
5.334606194347391e-006	1.000000e+000	5.738893e+000
5.501272861013068e-006	1.000000e+000	6.179820e+000
5.667939527678745e-006	1.000000e+000	6.495759e+000
5.834606194344422e-006	1.000000e+000	6.687060e+000
6.001272861010099e-006	1.000000e+000	6.756083e+000
6.167939527675775e-006	1.000000e+000	6.707070e+000
6.334606194341452e-006	1.000000e+000	6.545990e+000
6.501272861007129e-006	1.000000e+000	6.280371e+000
6.667939527672806e-006	1.000000e+000	5.919111e+000
6.834606194338483e-006	1.000000e+000	5.472266e+000
7.001272861004160e-006	1.000000e+000	4.950843e+000
7.167939527669837e-006	1.000000e+000	4.366577e+000
7.334606194335513e-006	1.000000e+000	3.731708e+000
7.501272861001190e-006	1.000000e+000	3.058761e+000
7.667939527666867e-006	1.000000e+000	2.360331e+000
8.001272860998221e-006	1.000000e+000	9.365107e-001
8.173075194368301e-006	1.000000e+000	2.079507e-001
8.210184527974312e-006	1.000000e+000	5.388268e-002
8.263032195029302e-006	1.000000e+000	-1.638537e-001
8.333167666664532e-006	1.000000e+000	-4.482027e-001
8.333167766664401e-006	1.000000e+000	-4.482031e-001
8.333167966664140e-006	1.000000e+000	-4.481018e-001
8.333168366663618e-006	1.000000e+000	-4.476807e-001
8.333168666666696e-006	1.000000e+000	-4.474414e-001
8.333333333332416e-006	1.000000e+000	-3.640907e-001
8.333333433332285e-006	1.000000e+000	-3.640401e-001
8.333333633332024e-006	1.000000e+000	-3.639857e-001
8.333334033331502e-006	1.000000e+000	-3.639773e-001
8.333334333331111e-006	1.000000e+000	-3.639358e-001
8.333334413329618e-006	1.000000e+000	-3.639141e-001
8.333334573330103e-006	8.333333e-001	-3.639203e-001
8.333334893331074e-006	2.894730e-001	-3.640196e-001
8.333335333329806e-006	0.000000e+000	-3.640759e-001
8.333499999998995e-006	0.000000e+000	-3.617014e-001
8.333500099998864e-006	0.000000e+000	-3.616999e-001
8.333500299998603e-006	0.000000e+000	-3.616974e-001
8.333500699998081e-006	0.000000e+000	-3.616933e-001
8.333500999997690e-006	0.000000e+000	-3.616899e-001
8.354472412628461e-006	0.000000e+000	-1.013700e-001
8.375443905261210e-006	0.000000e+000	1.572079e-001
8.417386890523237e-006	0.000000e+000	6.686608e-001
8.501272861047293e-006	0.000000e+000	1.665722e+000
8.667939527712970e-006	0.000000e+000	3.561818e+000
8.834606194378647e-006	0.000000e+000	5.334603e+000
9.001272861044324e-006	0.000000e+000	6.948407e+000
9.167939527710001e-006	0.000000e+000	8.384003e+000
9.334606194375678e-006	0.000000e+000	9.625896e+000
9.501272861041354e-006	0.000000e+000	1.066242e+001
9.667939527707031e-006	0.000000e+000	1.148575e+001
9.834606194372708e-006	0.000000e+000	1.209186e+001
1.000127286103839e-005	0.000000e+000	1.248045e+001
1.016793952770406e-005	0.000000e+000	1.265473e+001
1.033460619436974e-005	0.000000e+000	1.262128e+001
1.050127286103542e-005	0.000000e+000	1.238974e+001
1.066793952770109e-005	0.000000e+000	1.197255e+001
1.083460619436677e-005	0.000000e+000	1.138464e+001
1.100127286103245e-005	0.000000e+000	1.064302e+001
1.116793952769812e-005	0.000000e+000	9.766480e+000
1.133460619436380e-005	0.000000e+000	8.775158e+000
1.150127286102948e-005	0.000000e+000	7.690180e+000
1.166793952769515e-005	0.000000e+000	6.533266e+000
1.183460619436083e-005	0.000000e+000	5.326350e+000
1.216793952769218e-005	0.000000e+000	2.849158e+000
1.233460619435786e-005	0.000000e+000	1.620635e+000
1.250127286102354e-005	0.000000e+000	4.250010e-001
1.266793952768922e-005	0.000000e+000	-7.197772e-001
1.283460619435489e-005	0.000000e+000	-1.797345e+000
1.300127286102057e-005	0.000000e+000	-2.793157e+000
1.316793952768625e-005	0.000000e+000	-3.694630e+000
1.333460619435192e-005	0.000000e+000	-4.491268e+000
1.350127286101760e-005	0.000000e+000	-5.174733e+000
1.366793952768328e-005	0.000000e+000	-5.738893e+000
1.383460619434895e-005	0.000000e+000	-6.179820e+000
1.400127286101463e-005	0.000000e+000	-6.495759e+000
1.416793952768031e-005	0.000000e+000	-6.687060e+000
1.433460619434598e-005	0.000000e+000	-6.756083e+000
1.450127286101166e-005	0.000000e+000	-6.707070e+000
1.466793952767734e-005	0.000000e+000	-6.545990e+000
1.483460619434301e-005	0.000000e+000	-6.280371e+000
1.500127286100869e-005	0.000000e+000	-5.919111e+000
1.516793952767437e-005	0.000000e+000	-5.472266e+000
1.533460619434005e-005	0.000000e+000	-4.950843e+000
1.550127286100572e-005	0.000000e+000	-4.366577e+000
1.566793952767140e-005	0.000000e+000	-3.731708e+000
1.583460619433708e-005	0.000000e+000	-3.058761e+000
1.600127286100275e-005	0.000000e+000	-2.360331e+000
1.633460619433411e-005	0.000000e+000	-9.365107e-001
1.650640852770419e-005	0.000000e+000	-2.079507e-001
1.654351786131020e-005	0.000000e+000	-5.388268e-002
1.659636552836519e-005	0.000000e+000	1.638537e-001
1.666650099999695e-005	0.000000e+000	4.482027e-001
1.666650109999682e-005	0.000000e+000	4.482031e-001
1.666650129999656e-005	0.000000e+000	4.481018e-001
1.666650169999603e-005	0.000000e+000	4.476807e-001
1.666650199999564e-005	0.000000e+000	4.474414e-001
1.666650255999561e-005	0.000000e+000	4.471579e-001
1.666666666666483e-005	0.000000e+000	3.640907e-001
1.666666676666470e-005	0.000000e+000	3.640401e-001
1.666666696666444e-005	1.666667e-001	3.639857e-001
1.666666736666392e-005	7.857143e-001	3.639773e-001
1.666666766666353e-005	1.000000e+000	3.639358e-001
1.666666774666203e-005	1.000000e+000	3.639141e-001
1.666666790666252e-005	1.000000e+000	3.639203e-001
1.666666822666349e-005	1.000000e+000	3.640196e-001
1.666666866666222e-005	1.000000e+000	3.640759e-001
1.666683333333141e-005	1.000000e+000	3.617014e-001
1.666683343333128e-005	1.000000e+000	3.616999e-001
1.666683363333102e-005	1.000000e+000	3.616974e-001
1.666683403333050e-005	1.000000e+000	3.616933e-001
1.666683433333011e-005	1.000000e+000	3.616899e-001
1.668780574596088e-005	1.000000e+000	1.013700e-001
1.670877723859363e-005	1.000000e+000	-1.572079e-001
1.675072022385565e-005	1.000000e+000	-6.686608e-001
1.683460619437971e-005	1.000000e+000	-1.665722e+000
1.700127286104539e-005	1.000000e+000	-3.561818e+000
1.716793952771106e-005	1.000000e+000	-5.334603e+000
1.733460619437674e-005	1.000000e+000	-6.948407e+000
1.750127286104242e-005	1.000000e+000	-8.384003e+000
1.766793952770809e-005	1.000000e+000	-9.625896e+000
1.783460619437377e-005	1.000000e+000	-1.066242e+001
1.800127286103945e-005	1.000000e+000	-1.148575e+001
1.816793952770512e-005	1.000000e+000	-1.209186e+001
1.833460619437080e-005	1.000000e+000	-1.248045e+001
1.850127286103648e-005	1.000000e+000	-1.265473e+001
1.866793952770215e-005	1.000000e+000	-1.262128e+001
1.883460619436783e-005	1.000000e+000	-1.238974e+001
1.900127286103351e-005	1.000000e+000	-1.197255e+001
1.916793952769919e-005	1.000000e+000	-1.138464e+001
1.933460619436486e-005	1.000000e+000	-1.064302e+001
1.950127286103054e-005	1.000000e+000	-9.766480e+000
1.966793952769622e-005	1.000000e+000	-8.775158e+000
1.983460619436189e-005	1.000000e+000	-7.690180e+000
2.000127286102757e-005	1.000000e+000	-6.533266e+000
2.016793952769325e-005	1.000000e+000	-5.326350e+000
2.050127286102460e-005	1.000000e+000	-2.849158e+000
2.066793952769028e-005	1.000000e+000	-1.620635e+000
2.083460619435595e-005	1.000000e+000	-4.250010e-001
2.100127286102163e-005	1.000000e+000	7.197772e-001
2.116793952768731e-005	1.000000e+000	1.797345e+000
2.133460619435298e-005	1.000000e+000	2.793157e+000
2.150127286101866e-005	1.000000e+000	3.694630e+000
2.166793952768434e-005	1.000000e+000	4.491268e+000
2.183460619435002e-005	1.000000e+000	5.174733e+000
2.200127286101569e-005	1.000000e+000	5.738893e+000
2.216793952768137e-005	1.000000e+000	6.179820e+000
2.233460619434705e-005	1.000000e+000	6.495759e+000
2.250127286101272e-005	1.000000e+000	6.687060e+000
2.266793952767840e-005	1.000000e+000	6.756083e+000
2.283460619434408e-005	1.000000e+000	6.707070e+000
2.300127286100975e-005	1.000000e+000	6.545990e+000
2.316793952767543e-005	1.000000e+000	6.280371e+000
2.333460619434111e-005	1.000000e+000	5.919111e+000
2.350127286100678e-005	1.000000e+000	5.472266e+000
2.366793952767246e-005	1.000000e+000	4.950843e+000
2.383460619433814e-005	1.000000e+000	4.366577e+000
2.400127286100381e-005	1.000000e+000	3.731708e+000
2.416793952766949e-005	1.000000e+000	3.058761e+000
2.433460619433517e-005	1.000000e+000	2.360331e+000
2.466793952766652e-005	1.000000e+000	9.365107e-001
2.483974186103660e-005	1.000000e+000	2.079507e-001
2.487685119464261e-005	1.000000e+000	5.388268e-002
2.492969886169760e-005	1.000000e+000	-1.638537e-001
2.499983433332936e-005	1.000000e+000	-4.482027e-001
2.499983443332923e-005	1.000000e+000	-4.482031e-001
2.499983463332897e-005	1.000000e+000	-4.481018e-001
2.499983503332845e-005	1.000000e+000	-4.476807e-001
2.499983533333153e-005	1.000000e+000	-4.474414e-001
2.499999999999725e-005	1.000000e+000	-3.640907e-001
2.500000009999712e-005	1.000000e+000	-3.640401e-001
2.500000029999686e-005	1.000000e+000	-3.639857e-001
2.500000069999633e-005	1.000000e+000	-3.639773e-001
2.500000099999941e-005	1.000000e+000	-3.639358e-001
2.500000107999792e-005	1.000000e+000	-3.639141e-001
2.500000123999840e-005	8.333333e-001	-3.639203e-001
2.500000155999937e-005	2.894730e-001	-3.640196e-001
2.500000199999811e-005	0.000000e+000	-3.640759e-001
2.500016666666383e-005	0.000000e+000	-3.617014e-001
2.500016676666370e-005	0.000000e+000	-3.616999e-001
2.500016696666343e-005	0.000000e+000	-3.616974e-001
2.500016736666291e-005	0.000000e+000	-3.616933e-001
2.500016766666599e-005	0.000000e+000	-3.616899e-001
2.502113915205800e-005	0.000000e+000	-1.013691e-001
2.504211071744852e-005	0.000000e+000	1.572097e-001
2.508405384822957e-005	0.000000e+000	6.686643e-001
2.516794010979165e-005	0.000000e+000	1.665729e+000
2.533460677645733e-005	0.000000e+000	3.561824e+000
2.550127344312300e-005	0.000000e+000	5.334609e+000
2.566794010978868e-005	0.000000e+000	6.948412e+000
2.583460677645436e-005	0.000000e+000	8.384007e+000
2.600127344312003e-005	0.000000e+000	9.625899e+000
2.616794010978571e-005	0.000000e+000	1.066242e+001
2.633460677645139e-005	0.000000e+000	1.148575e+001
2.650127344311706e-005	0.000000e+000	1.209186e+001
2.666794010978274e-005	0.000000e+000	1.248045e+001
2.683460677644842e-005	0.000000e+000	1.265473e+001
2.700127344311409e-005	0.000000e+000	1.262127e+001
2.716794010977977e-005	0.000000e+000	1.238974e+001
2.733460677644545e-005	0.000000e+000	1.197255e+001
2.750127344311112e-005	0.000000e+000	1.138464e+001
2.766794010977680e-005	0.000000e+000	1.064302e+001
2.783460677644248e-005	0.000000e+000	9.766477e+000
2.800127344310815e-005	0.000000e+000	8.775154e+000
2.816794010977383e-005	0.000000e+000	7.690176e+000
2.833460677643951e-005	0.000000e+000	6.533261e+000
2.850127344310519e-005	0.000000e+000	5.326346e+000
2.883460677643654e-005	0.000000e+000	2.849153e+000
2.900127344310222e-005	0.000000e+000	1.620631e+000
2.916794010976789e-005	0.000000e+000	4.249969e-001
2.933460677643357e-005	0.000000e+000	-7.197812e-001
2.950127344309925e-005	0.000000e+000	-1.797349e+000
2.966794010976492e-005	0.000000e+000	-2.793160e+000
2.983460677643060e-005	0.000000e+000	-3.694633e+000
3.000127344309628e-005	0.000000e+000	-4.491271e+000
3.016794010976195e-005	0.000000e+000	-5.174736e+000
3.033460677642763e-005	0.000000e+000	-5.738895e+000
3.050127344309331e-005	0.000000e+000	-6.179821e+000
3.066794010975898e-005	0.000000e+000	-6.495759e+000
3.083460677642466e-005	0.000000e+000	-6.687060e+000
3.100127344309034e-005	0.000000e+000	-6.756083e+000
3.116794010975602e-005	0.000000e+000	-6.707069e+000
3.133460677642169e-005	0.000000e+000	-6.545989e+000
3.150127344308737e-005	0.000000e+000	-6.280370e+000
3.166794010975305e-005	0.000000e+000	-5.919109e+000
3.183460677641872e-005	0.000000e+000	-5.472264e+000
3.200127344308440e-005	0.000000e+000	-4.950841e+000
3.216794010975008e-005	0.000000e+000	-4.366574e+000
3.233460677641575e-005	0.000000e+000	-3.731705e+000
3.250127344308143e-005	0.000000e+000	-3.058759e+000
3.266794010974711e-005	0.000000e+000	-2.360329e+000
3.300127344307846e-005	0.000000e+000	-9.365082e-001
3.317307577644854e-005	0.000000e+000	-2.079483e-001
3.321018511005455e-005	0.000000e+000	-5.388027e-002
3.326303277710954e-005	0.000000e+000	1.638561e-001
3.333300199999389e-005	0.000000e+000	4.475375e-001
3.333316766666525e-005	0.000000e+000	4.482027e-001
3.333316776666512e-005	0.000000e+000	4.482031e-001
3.333316796666486e-005	0.000000e+000	4.481018e-001
3.333316836666433e-005	0.000000e+000	4.476807e-001
3.333316866666394e-005	0.000000e+000	4.474414e-001
3.333333333333313e-005	0.000000e+000	3.640907e-001
3.333333343333300e-005	0.000000e+000	3.640401e-001
3.333333363333274e-005	1.666667e-001	3.639857e-001
3.333333403333222e-005	7.857157e-001	3.639773e-001
3.333333433332836e-005	1.000000e+000	3.639358e-001
3.333333441332687e-005	1.000000e+000	3.639141e-001
3.333333457332735e-005	1.000000e+000	3.639203e-001
3.333333489332485e-005	1.000000e+000	3.640196e-001
3.333333533333052e-005	1.000000e+000	3.640759e-001
3.333349999999624e-005	1.000000e+000	3.617014e-001
3.333350009999611e-005	1.000000e+000	3.616999e-001
3.333350029999585e-005	1.000000e+000	3.616975e-001
3.333350069999533e-005	1.000000e+000	3.616933e-001
3.333350099999494e-005	1.000000e+000	3.616899e-001
3.335447241262571e-005	1.000000e+000	1.013700e-001
3.337544390525846e-005	1.000000e+000	-1.572079e-001
3.341738689052048e-005	1.000000e+000	-6.686608e-001
3.350127286104454e-005	1.000000e+000	-1.665722e+000
3.366793952771022e-005	1.000000e+000	-3.561818e+000
3.383460619437589e-005	1.000000e+000	-5.334603e+000
3.400127286104157e-005	1.000000e+000	-6.948407e+000
3.416793952770725e-005	1.000000e+000	-8.384003e+000
3.433460619437292e-005	1.000000e+000	-9.625896e+000
3.450127286103860e-005	1.000000e+000	-1.066242e+001
3.466793952770428e-005	1.000000e+000	-1.148575e+001
3.483460619436996e-005	1.000000e+000	-1.209186e+001
3.500127286103563e-005	1.000000e+000	-1.248045e+001
3.516793952770131e-005	1.000000e+000	-1.265473e+001
3.533460619436699e-005	1.000000e+000	-1.262128e+001
3.550127286103266e-005	1.000000e+000	-1.238974e+001
3.566793952769834e-005	1.000000e+000	-1.197255e+001
3.583460619436402e-005	1.000000e+000	-1.138464e+001
3.600127286102969e-005	1.000000e+000	-1.064302e+001
3.616793952769537e-005	1.000000e+000	-9.766480e+000
3.633460619436105e-005	1.000000e+000	-8.775158e+000
3.650127286102672e-005	1.000000e+000	-7.690180e+000
3.666793952769240e-005	1.000000e+000	-6.533266e+000
3.683460619435808e-005	1.000000e+000	-5.326350e+000
3.716793952768943e-005	1.000000e+000	-2.849158e+000
3.733460619435511e-005	1.000000e+000	-1.620635e+000
3.750127286102079e-005	1.000000e+000	-4.250010e-001
3.766793952768646e-005	1.000000e+000	7.197772e-001
3.783460619435214e-005	1.000000e+000	1.797345e+000
3.800127286101782e-005	1.000000e+000	2.793157e+000
3.816793952768349e-005	1.000000e+000	3.694630e+000
3.833460619434917e-005	1.000000e+000	4.491268e+000
3.850127286101485e-005	1.000000e+000	5.174733e+000
3.866793952768052e-005	1.000000e+000	5.738893e+000
3.883460619434620e-005	1.000000e+000	6.179820e+000
3.900127286101188e-005	1.000000e+000	6.495759e+000
3.916793952767755e-005	1.000000e+000	6.687060e+000
3.933460619434323e-005	1.000000e+000	6.756083e+000
3.950127286100891e-005	1.000000e+000	6.707070e+000
3.966793952767458e-005	1.000000e+000	6.545990e+000
3.983460619434026e-005	1.000000e+000	6.280371e+000
4.000127286100594e-005	1.000000e+000	5.919111e+000
4.016793952767161e-005	1.000000e+000	5.472266e+000
4.033460619433729e-005	1.000000e+000	4.950843e+000
4.050127286100297e-005	1.000000e+000	4.366577e+000
4.066793952766865e-005	1.000000e+000	3.731708e+000
4.083460619433432e-005	1.000000e+000	3.058761e+000
4.100127286100000e-005	1.000000e+000	2.360331e+000
4.133460619433135e-005	1.000000e+000	9.365107e-001
4.150640852770143e-005	1.000000e+000	2.079507e-001
4.154351786130744e-005	1.000000e+000	5.388268e-002
4.159636552836243e-005	1.000000e+000	-1.638537e-001
4.166650099999766e-005	1.000000e+000	-4.482027e-001
4.166650109999753e-005	1.000000e+000	-4.482031e-001
4.166650129999727e-005	1.000000e+000	-4.481018e-001
4.166650169999675e-005	1.000000e+000	-4.476807e-001
4.166650199999983e-005	1.000000e+000	-4.474414e-001
4.166666666666555e-005	1.000000e+000	-3.640907e-001
4.166666676666542e-005	1.000000e+000	-3.640401e-001
4.166666696666516e-005	1.000000e+000	-3.639857e-001
4.166666736666463e-005	1.000000e+000	-3.639773e-001
4.166666766666424e-005	1.000000e+000	-3.639358e-001
4.166666774666275e-005	1.000000e+000	-3.639141e-001
4.166666790666324e-005	8.333333e-001	-3.639203e-001
4.166666822666421e-005	2.894730e-001	-3.640196e-001
4.166666866666294e-005	0.000000e+000	-3.640759e-001
4.166683333333213e-005	0.000000e+000	-3.617014e-001
4.166683343333200e-005	0.000000e+000	-3.616999e-001
4.166683363333174e-005	0.000000e+000	-3.616974e-001
4.166683403333121e-005	0.000000e+000	-3.616933e-001
4.166683433333082e-005	0.000000e+000	-3.616899e-001
4.168780574596159e-005	0.000000e+000	-1.013700e-001
4.170877723859434e-005	0.000000e+000	1.572079e-001
4.175072022385637e-005	0.000000e+000	6.686608e-001
4.183460619438043e-005	0.000000e+000	1.665722e+000
4.200127286104610e-005	0.000000e+000	3.561818e+000
4.216793952771178e-005	0.000000e+000	5.334603e+000
4.233460619437746e-005	0.000000e+000	6.948407e+000
4.250127286104313e-005	0.000000e+000	8.384003e+000
4.266793952770881e-005	0.000000e+000	9.625896e+000
4.283460619437449e-005	0.000000e+000	1.066242e+001
4.300127286104016e-005	0.000000e+000	1.148575e+001
4.316793952770584e-005	0.000000e+000	1.209186e+001
4.333460619437152e-005	0.000000e+000	1.248045e+001
4.350127286103719e-005	0.000000e+000	1.265473e+001
4.366793952770287e-005	0.000000e+000	1.262128e+001
4.383460619436855e-005	0.000000e+000	1.238974e+001
